
T1654 000:047 SEGGER J-Link V4.68a Log File (0000ms, 0047ms total)
T1654 000:047 DLL Compiled: Apr 12 2013 13:26:50 (0000ms, 0047ms total)
T1654 000:047 Logging started @ 2016-04-21 16:05 (0000ms, 0047ms total)
T1654 000:047 JLINK_SetWarnOutHandler(...) (0000ms, 0047ms total)
T1654 000:047 JLINK_OpenEx(...)
Firmware: J-Link ARM V8 compiled Nov 14 2012 22:34:52
Hardware: V8.00
S/N: 304423265
Feature(s): RDI,FlashDL,FlashBP,JFlash,GDBFULL  returns O.K. (0012ms, 0059ms total)
T1654 000:059 JLINK_SetErrorOutHandler(...) (0000ms, 0059ms total)
T1654 000:059 JLINK_ExecCommand("ProjectFile = "E:\马玉林\软件设计\USART_485\临时\485_Test\热力管道温度压力监测仪（433版）\温度压力监测仪源程序（20160421）\Project\RVMDK（uv4）\JLinkSettings.ini"", ...)  returns 0x00 (0001ms, 0060ms total)
T1654 000:066 JLINK_ExecCommand("Device = STM32F103RC", ...)
                JLINK_AddMirrorAreaEx(Addr = 0x00000000, Size = 0x00000000) (0000ms, 0000ms total)
              Device "STM32F103RC" selected (256 KB flash, 48 KB RAM).  returns 0x00 (0002ms, 0062ms total)
T1654 000:068 JLINK_ExecCommand("DisableConnectionTimeout", ...)  returns 0x00 (0000ms, 0062ms total)
T1654 000:068 JLINK_GetHardwareVersion()  returns 0x13880 (0000ms, 0062ms total)
T1654 000:068 JLINK_GetDLLVersion()  returns 46801 (0000ms, 0062ms total)
T1654 000:068 JLINK_GetFirmwareString(...) (0000ms, 0062ms total)
T1654 000:073 JLINK_GetDLLVersion()  returns 46801 (0000ms, 0062ms total)
T1654 000:073 JLINK_GetCompileDateTime() (0000ms, 0062ms total)
T1654 000:075 JLINK_GetFirmwareString(...) (0000ms, 0062ms total)
T1654 000:076 JLINK_GetHardwareVersion()  returns 0x13880 (0000ms, 0062ms total)
T1654 000:089 JLINK_TIF_Select(JLINKARM_TIF_SWD)  returns 0x00 (0002ms, 0064ms total)
T1654 000:091 JLINK_SetSpeed(10000) (0000ms, 0064ms total)
T1654 000:091 JLINK_GetId() >0x108 TIF>Found SWD-DP with ID 0x1BA01477 >0x0D TIF> >0x28 TIF> >0x0D TIF> >0x28 TIF> >0x0D TIF> >0x21 TIF> >0x0D TIF> >0x28 TIF> >0x0D TIF> >0x28 TIF> >0x0D TIF> >0x28 TIF> >0x0D TIF> >0x21 TIF> >0x0D TIF> >0x21 TIF> >0x0D TIF> >0x28 TIF> >0x0D TIF> >0x21 TIF> >0x0D TIF> >0x21 TIF> >0x108 TIF>Found SWD-DP with ID 0x1BA01477 >0x0D TIF> >0x21 TIF> >0x0D TIF> >0x28 TIF> >0x0D TIF> >0x28 TIF> >0x0D TIF> >0x21 TIF> >0x0D TIF> >0x21 TIF> >0x0D TIF> >0x28 TIF> >0x0D TIF> >0x21 TIF>
 >0x0D TIF> >0x21 TIF> >0x0D TIF> >0x21 TIF> >0x0D TIF> >0x21 TIF> >0x0D TIF> >0x21 TIF> >0x0D TIF> >0x28 TIF> >0x0D TIF> >0x28 TIF> >0x0D TIF> >0x21 TIF> >0x0D TIF> >0x21 TIF> >0x0D TIF> >0x28 TIF> >0x0D TIF> >0x21 TIF> >0x0D TIF> >0x21 TIF> >0x0D TIF> >0x28 TIF> >0x0D TIF> >0x28 TIF> >0x0D TIF> >0x28 TIF> >0x0D TIF> >0x21 TIF> >0x0D TIF> >0x21 TIF> >0x0D TIF> >0x28 TIF> >0x0D TIF> >0x28 TIF> >0x0D TIF> >0x28 TIF> >0x0D TIF> >0x21 TIF> >0x0D TIF> >0x21 TIF> >0x0D TIF> >0x21 TIF>TPIU fitted.ETM fitted.
 >0x0D TIF> >0x28 TIF> >0x0D TIF> >0x21 TIF> >0x0D TIF> >0x21 TIF> >0x0D TIF> >0x28 TIF> >0x0D TIF> >0x21 TIF> >0x0D TIF> >0x21 TIF>FPUnit: 6 code (BP) slots and 2 literal slots >0x0D TIF> >0x28 TIF> >0x0D TIF> >0x21 TIF> >0x0D TIF> >0x21 TIF> >0x0D TIF> >0x28 TIF> >0x0D TIF> >0x21 TIF> >0x0D TIF> >0x21 TIF> >0x0D TIF> >0x28 TIF> >0x0D TIF> >0x21 TIF> >0x0D TIF> >0x21 TIF> >0x0D TIF> >0x28 TIF> >0x0D TIF> >0x21 TIF> >0x0D TIF> >0x21 TIF>Found Cortex-M3 r1p1, Little endian. >0x0D TIF> >0x21 TIF>
  returns 0x1BA01477 (0068ms, 0132ms total)
T1654 000:159 JLINK_GetDeviceFamily()  returns 3 (0000ms, 0132ms total)
T1654 000:161 JLINK_ReadMem (0xE00FFFF0, 0x0010 Bytes, ...) -- CPU is running -- CPU_ReadMem(16 bytes @ 0xE00FFFF0) -- Data:  0D 00 00 00 10 00 00 00 05 00 00 00 B1 00 00 00  returns 0x00 (0001ms, 0133ms total)
T1654 000:162 JLINK_ReadMem (0xE00FFFD0, 0x0020 Bytes, ...) -- CPU is running -- CPU_ReadMem(32 bytes @ 0xE00FFFD0) -- Data:  00 00 00 00 00 00 00 00 00 00 00 00 00 00 00 00 ...  returns 0x00 (0001ms, 0134ms total)
T1654 000:163 JLINK_ReadMem (0xE00FF000, 0x0018 Bytes, ...) -- CPU is running -- CPU_ReadMem(24 bytes @ 0xE00FF000) -- Data:  03 F0 F0 FF 03 20 F0 FF 03 30 F0 FF 03 10 F0 FF ...  returns 0x00 (0001ms, 0135ms total)
T1654 000:164 JLINK_ReadMemU32(0xE000ED00, 0x0001 Items, ...) -- CPU is running -- CPU_ReadMem(4 bytes @ 0xE000ED00) -- Data:  31 C2 1F 41  returns 0x01 (0001ms, 0136ms total)
T1654 000:165 JLINK_SetResetType(JLINKARM_RESET_TYPE_NORMAL)  returns JLINKARM_RESET_TYPE_NORMAL (0000ms, 0136ms total)
T1654 000:165 JLINK_Reset() -- CPU is running -- CPU_WriteMem(4 bytes @ 0xE000EDF0) -- CPU is running -- CPU_WriteMem(4 bytes @ 0xE000EDFC) >0x35 TIF> -- CPU is running -- CPU_WriteMem(4 bytes @ 0xE000ED0C) -- CPU is running -- CPU_ReadMem(4 bytes @ 0xE000EDF0) -- CPU is running -- CPU_ReadMem(4 bytes @ 0xE000EDF0) -- CPU is running -- CPU_WriteMem(4 bytes @ 0xE000EDF0) -- CPU is running -- CPU_WriteMem(4 bytes @ 0xE000EDFC) -- CPU is running -- CPU_ReadMem(4 bytes @ 0xE000EDF0)
 -- CPU_WriteMem(4 bytes @ 0xE0002000) (0018ms, 0154ms total)
T1654 000:183 JLINK_Halt()  returns 0x00 (0000ms, 0154ms total)
T1654 000:183 JLINK_IsHalted()  returns TRUE (0000ms, 0154ms total)
T1654 000:183 JLINK_ReadMemU32(0xE000EDF0, 0x0001 Items, ...) -- CPU_ReadMem(4 bytes @ 0xE000EDF0) -- Data:  03 00 03 00  returns 0x01 (0000ms, 0154ms total)
T1654 000:183 JLINK_WriteU32(0xE000EDF0, 0xA05F0003) -- CPU_WriteMem(4 bytes @ 0xE000EDF0)  returns 0x00 (0001ms, 0155ms total)
T1654 000:184 JLINK_WriteU32(0xE000EDFC, 0x01000000) -- CPU_WriteMem(4 bytes @ 0xE000EDFC)  returns 0x00 (0001ms, 0156ms total)
T1654 000:190 JLINK_GetHWStatus(...)  returns 0x00 (0000ms, 0156ms total)
T1654 000:193 JLINK_GetNumBPUnits(Type = 0xFFFFFF00)  returns 0x06 (0000ms, 0156ms total)
T1654 000:193 JLINK_GetNumBPUnits(Type = 0xF0)  returns 0x2000 (0000ms, 0156ms total)
T1654 000:193 JLINK_GetNumWPUnits()  returns 0x04 (0000ms, 0156ms total)
T1654 000:196 JLINK_GetSpeed()  returns 0xFA0 (0000ms, 0156ms total)
T1654 000:199 JLINK_ReadMemU32(0xE000E004, 0x0001 Items, ...) -- CPU_ReadMem(4 bytes @ 0xE000E004) -- Data:  01 00 00 00  returns 0x01 (0000ms, 0156ms total)
T1654 000:199 JLINK_ReadMemU32(0xE000E004, 0x0001 Items, ...) -- CPU_ReadMem(4 bytes @ 0xE000E004) -- Data:  01 00 00 00  returns 0x01 (0001ms, 0157ms total)
T1654 000:200 JLINK_WriteMem(0xE0001000, 0x001C Bytes, ...) -- Data:  01 00 00 00 00 00 00 00 00 00 00 00 00 00 00 00 ... -- CPU_WriteMem(28 bytes @ 0xE0001000)  returns 0x1C (0001ms, 0158ms total)
T1654 000:201 JLINK_ReadMem (0xE0001000, 0x001C Bytes, ...) -- CPU_ReadMem(28 bytes @ 0xE0001000) -- Data:  01 00 00 40 00 00 00 00 00 00 00 00 00 00 00 00 ...  returns 0x00 (0001ms, 0159ms total)
T1654 000:202 JLINK_Halt()  returns 0x00 (0000ms, 0159ms total)
T1654 000:202 JLINK_IsHalted()  returns TRUE (0000ms, 0159ms total)
T1654 000:204 JLINK_WriteMem(0x20000000, 0x0164 Bytes, ...) -- Data:  00 BE 0A E0 0D 78 2D 06 68 40 08 24 40 00 00 D3 ... -- CPU_WriteMem(356 bytes @ 0x20000000)  returns 0x164 (0003ms, 0162ms total)
T1654 000:207 JLINK_WriteReg(R0, 0x08000000)  returns 0x00 (0000ms, 0162ms total)
T1654 000:207 JLINK_WriteReg(R1, 0x007A1200)  returns 0x00 (0000ms, 0162ms total)
T1654 000:207 JLINK_WriteReg(R2, 0x00000001)  returns 0x00 (0000ms, 0162ms total)
T1654 000:207 JLINK_WriteReg(R3, 0x00000000)  returns 0x00 (0000ms, 0162ms total)
T1654 000:207 JLINK_WriteReg(R4, 0x00000000)  returns 0x00 (0000ms, 0162ms total)
T1654 000:207 JLINK_WriteReg(R5, 0x00000000)  returns 0x00 (0000ms, 0162ms total)
T1654 000:207 JLINK_WriteReg(R6, 0x00000000)  returns 0x00 (0000ms, 0162ms total)
T1654 000:207 JLINK_WriteReg(R7, 0x00000000)  returns 0x00 (0000ms, 0162ms total)
T1654 000:207 JLINK_WriteReg(R8, 0x00000000)  returns 0x00 (0000ms, 0162ms total)
T1654 000:207 JLINK_WriteReg(R9, 0x20000160)  returns 0x00 (0000ms, 0162ms total)
T1654 000:207 JLINK_WriteReg(R10, 0x00000000)  returns 0x00 (0000ms, 0162ms total)
T1654 000:207 JLINK_WriteReg(R11, 0x00000000)  returns 0x00 (0000ms, 0162ms total)
T1654 000:207 JLINK_WriteReg(R12, 0x00000000)  returns 0x00 (0000ms, 0162ms total)
T1654 000:207 JLINK_WriteReg(R13, 0x20000800)  returns 0x00 (0000ms, 0162ms total)
T1654 000:207 JLINK_WriteReg(R14, 0x20000001)  returns 0x00 (0000ms, 0162ms total)
T1654 000:207 JLINK_WriteReg(R15, 0x20000038)  returns 0x00 (0000ms, 0162ms total)
T1654 000:207 JLINK_WriteReg(XPSR, 0x01000000)  returns 0x00 (0000ms, 0162ms total)
T1654 000:207 JLINK_WriteReg(MSP, 0x20000800)  returns 0x00 (0000ms, 0162ms total)
T1654 000:207 JLINK_WriteReg(PSP, 0x20000800)  returns 0x00 (0000ms, 0162ms total)
T1654 000:207 JLINK_WriteReg(CFBP, 0x00000000)  returns 0x00 (0000ms, 0162ms total)
T1654 000:207 JLINK_SetBPEx(Addr = 0x20000000, Type = 0xFFFFFFF2) -- CPU_ReadMem(2 bytes @ 0x20000000)  returns 0x00000001 (0001ms, 0163ms total)
T1654 000:208 JLINK_Go() -- CPU_WriteMem(2 bytes @ 0x20000000) -- CPU_WriteMem(4 bytes @ 0xE0002008) -- CPU_WriteMem(4 bytes @ 0xE000200C) -- CPU_WriteMem(4 bytes @ 0xE0002010) -- CPU_WriteMem(4 bytes @ 0xE0002014) -- CPU_WriteMem(4 bytes @ 0xE0002018) -- CPU_WriteMem(4 bytes @ 0xE000201C) (0007ms, 0170ms total)
T1654 000:215 JLINK_IsHalted() -- CPU_ReadMem(2 bytes @ 0x20000000)  returns TRUE (0004ms, 0174ms total)
T1654 000:219 JLINK_ReadReg(R15)  returns 0x20000000 (0000ms, 0170ms total)
T1654 000:219 JLINK_ClrBPEx(BPHandle = 0x00000001)  returns 0x00 (0000ms, 0170ms total)
T1654 000:219 JLINK_ReadReg(R0)  returns 0x00000000 (0000ms, 0170ms total)
T1654 000:219 JLINK_WriteReg(R0, 0x08000000)  returns 0x00 (0001ms, 0171ms total)
T1654 000:220 JLINK_WriteReg(R1, 0x007A1200)  returns 0x00 (0000ms, 0171ms total)
T1654 000:220 JLINK_WriteReg(R2, 0x00000001)  returns 0x00 (0000ms, 0171ms total)
T1654 000:220 JLINK_WriteReg(R3, 0x00000000)  returns 0x00 (0000ms, 0171ms total)
T1654 000:220 JLINK_WriteReg(R4, 0x00000000)  returns 0x00 (0000ms, 0171ms total)
T1654 000:220 JLINK_WriteReg(R5, 0x00000000)  returns 0x00 (0000ms, 0171ms total)
T1654 000:220 JLINK_WriteReg(R6, 0x00000000)  returns 0x00 (0000ms, 0171ms total)
T1654 000:220 JLINK_WriteReg(R7, 0x00000000)  returns 0x00 (0000ms, 0171ms total)
T1654 000:220 JLINK_WriteReg(R8, 0x00000000)  returns 0x00 (0000ms, 0171ms total)
T1654 000:220 JLINK_WriteReg(R9, 0x20000160)  returns 0x00 (0000ms, 0171ms total)
T1654 000:220 JLINK_WriteReg(R10, 0x00000000)  returns 0x00 (0000ms, 0171ms total)
T1654 000:220 JLINK_WriteReg(R11, 0x00000000)  returns 0x00 (0000ms, 0171ms total)
T1654 000:220 JLINK_WriteReg(R12, 0x00000000)  returns 0x00 (0000ms, 0171ms total)
T1654 000:220 JLINK_WriteReg(R13, 0x20000800)  returns 0x00 (0000ms, 0171ms total)
T1654 000:220 JLINK_WriteReg(R14, 0x20000001)  returns 0x00 (0000ms, 0171ms total)
T1654 000:220 JLINK_WriteReg(R15, 0x2000007C)  returns 0x00 (0000ms, 0171ms total)
T1654 000:220 JLINK_WriteReg(XPSR, 0x01000000)  returns 0x00 (0000ms, 0171ms total)
T1654 000:220 JLINK_WriteReg(MSP, 0x20000800)  returns 0x00 (0000ms, 0171ms total)
T1654 000:220 JLINK_WriteReg(PSP, 0x20000800)  returns 0x00 (0000ms, 0171ms total)
T1654 000:220 JLINK_WriteReg(CFBP, 0x00000000)  returns 0x00 (0000ms, 0171ms total)
T1654 000:220 JLINK_SetBPEx(Addr = 0x20000000, Type = 0xFFFFFFF2)  returns 0x00000002 (0000ms, 0171ms total)
T1654 000:220 JLINK_Go() (0001ms, 0172ms total)
T1654 000:221 JLINK_IsHalted()  returns FALSE (0001ms, 0173ms total)
T1654 000:244 JLINK_IsHalted() -- CPU_ReadMem(2 bytes @ 0x20000000)  returns TRUE (0003ms, 0175ms total)
T1654 000:247 JLINK_ReadReg(R15)  returns 0x20000000 (0000ms, 0172ms total)
T1654 000:247 JLINK_ClrBPEx(BPHandle = 0x00000002)  returns 0x00 (0000ms, 0172ms total)
T1654 000:247 JLINK_ReadReg(R0)  returns 0x00000000 (0000ms, 0172ms total)
T1654 000:299 JLINK_WriteReg(R0, 0x00000001)  returns 0x00 (0000ms, 0172ms total)
T1654 000:299 JLINK_WriteReg(R1, 0x007A1200)  returns 0x00 (0000ms, 0172ms total)
T1654 000:299 JLINK_WriteReg(R2, 0x00000001)  returns 0x00 (0000ms, 0172ms total)
T1654 000:299 JLINK_WriteReg(R3, 0x00000000)  returns 0x00 (0000ms, 0172ms total)
T1654 000:299 JLINK_WriteReg(R4, 0x00000000)  returns 0x00 (0000ms, 0172ms total)
T1654 000:299 JLINK_WriteReg(R5, 0x00000000)  returns 0x00 (0000ms, 0172ms total)
T1654 000:299 JLINK_WriteReg(R6, 0x00000000)  returns 0x00 (0000ms, 0172ms total)
T1654 000:299 JLINK_WriteReg(R7, 0x00000000)  returns 0x00 (0000ms, 0172ms total)
T1654 000:299 JLINK_WriteReg(R8, 0x00000000)  returns 0x00 (0000ms, 0172ms total)
T1654 000:299 JLINK_WriteReg(R9, 0x20000160)  returns 0x00 (0000ms, 0172ms total)
T1654 000:299 JLINK_WriteReg(R10, 0x00000000)  returns 0x00 (0000ms, 0172ms total)
T1654 000:299 JLINK_WriteReg(R11, 0x00000000)  returns 0x00 (0000ms, 0172ms total)
T1654 000:299 JLINK_WriteReg(R12, 0x00000000)  returns 0x00 (0000ms, 0172ms total)
T1654 000:299 JLINK_WriteReg(R13, 0x20000800)  returns 0x00 (0000ms, 0172ms total)
T1654 000:299 JLINK_WriteReg(R14, 0x20000001)  returns 0x00 (0000ms, 0172ms total)
T1654 000:299 JLINK_WriteReg(R15, 0x2000006A)  returns 0x00 (0000ms, 0172ms total)
T1654 000:299 JLINK_WriteReg(XPSR, 0x01000000)  returns 0x00 (0000ms, 0172ms total)
T1654 000:299 JLINK_WriteReg(MSP, 0x20000800)  returns 0x00 (0000ms, 0172ms total)
T1654 000:299 JLINK_WriteReg(PSP, 0x20000800)  returns 0x00 (0000ms, 0172ms total)
T1654 000:299 JLINK_WriteReg(CFBP, 0x00000000)  returns 0x00 (0000ms, 0172ms total)
T1654 000:299 JLINK_SetBPEx(Addr = 0x20000000, Type = 0xFFFFFFF2)  returns 0x00000003 (0000ms, 0172ms total)
T1654 000:299 JLINK_Go() (0002ms, 0174ms total)
T1654 000:301 JLINK_IsHalted() -- CPU_ReadMem(2 bytes @ 0x20000000)  returns TRUE (0003ms, 0177ms total)
T1654 000:304 JLINK_ReadReg(R15)  returns 0x20000000 (0000ms, 0174ms total)
T1654 000:304 JLINK_ClrBPEx(BPHandle = 0x00000003)  returns 0x00 (0000ms, 0174ms total)
T1654 000:304 JLINK_ReadReg(R0)  returns 0x00000000 (0000ms, 0174ms total)
T1654 000:307 JLINK_WriteMem(0x20000000, 0x0164 Bytes, ...) -- Data:  00 BE 0A E0 0D 78 2D 06 68 40 08 24 40 00 00 D3 ... -- CPU_WriteMem(356 bytes @ 0x20000000)  returns 0x164 (0003ms, 0177ms total)
T1654 000:310 JLINK_WriteReg(R0, 0x08000000)  returns 0x00 (0000ms, 0177ms total)
T1654 000:310 JLINK_WriteReg(R1, 0x007A1200)  returns 0x00 (0000ms, 0177ms total)
T1654 000:310 JLINK_WriteReg(R2, 0x00000002)  returns 0x00 (0000ms, 0177ms total)
T1654 000:310 JLINK_WriteReg(R3, 0x00000000)  returns 0x00 (0000ms, 0177ms total)
T1654 000:310 JLINK_WriteReg(R4, 0x00000000)  returns 0x00 (0000ms, 0177ms total)
T1654 000:310 JLINK_WriteReg(R5, 0x00000000)  returns 0x00 (0000ms, 0177ms total)
T1654 000:310 JLINK_WriteReg(R6, 0x00000000)  returns 0x00 (0000ms, 0177ms total)
T1654 000:310 JLINK_WriteReg(R7, 0x00000000)  returns 0x00 (0000ms, 0177ms total)
T1654 000:310 JLINK_WriteReg(R8, 0x00000000)  returns 0x00 (0000ms, 0177ms total)
T1654 000:310 JLINK_WriteReg(R9, 0x20000160)  returns 0x00 (0000ms, 0177ms total)
T1654 000:310 JLINK_WriteReg(R10, 0x00000000)  returns 0x00 (0000ms, 0177ms total)
T1654 000:310 JLINK_WriteReg(R11, 0x00000000)  returns 0x00 (0000ms, 0177ms total)
T1654 000:310 JLINK_WriteReg(R12, 0x00000000)  returns 0x00 (0000ms, 0177ms total)
T1654 000:310 JLINK_WriteReg(R13, 0x20000800)  returns 0x00 (0000ms, 0177ms total)
T1654 000:310 JLINK_WriteReg(R14, 0x20000001)  returns 0x00 (0000ms, 0177ms total)
T1654 000:310 JLINK_WriteReg(R15, 0x20000038)  returns 0x00 (0000ms, 0177ms total)
T1654 000:310 JLINK_WriteReg(XPSR, 0x01000000)  returns 0x00 (0000ms, 0177ms total)
T1654 000:310 JLINK_WriteReg(MSP, 0x20000800)  returns 0x00 (0000ms, 0177ms total)
T1654 000:310 JLINK_WriteReg(PSP, 0x20000800)  returns 0x00 (0000ms, 0177ms total)
T1654 000:310 JLINK_WriteReg(CFBP, 0x00000000)  returns 0x00 (0000ms, 0177ms total)
T1654 000:310 JLINK_SetBPEx(Addr = 0x20000000, Type = 0xFFFFFFF2) -- CPU_ReadMem(2 bytes @ 0x20000000)  returns 0x00000004 (0001ms, 0178ms total)
T1654 000:311 JLINK_Go() -- CPU_WriteMem(2 bytes @ 0x20000000) (0003ms, 0181ms total)
T1654 000:314 JLINK_IsHalted() -- CPU_ReadMem(2 bytes @ 0x20000000)  returns TRUE (0003ms, 0184ms total)
T1654 000:317 JLINK_ReadReg(R15)  returns 0x20000000 (0000ms, 0181ms total)
T1654 000:317 JLINK_ClrBPEx(BPHandle = 0x00000004)  returns 0x00 (0000ms, 0181ms total)
T1654 000:317 JLINK_ReadReg(R0)  returns 0x00000000 (0000ms, 0181ms total)
T1654 000:317 JLINK_WriteMem(0x20000164, 0x0400 Bytes, ...) -- Data:  70 0D 00 20 45 01 00 08 61 24 00 08 89 23 00 08 ... -- CPU_WriteMem(1024 bytes @ 0x20000164)  returns 0x400 (0006ms, 0187ms total)
T1654 000:323 JLINK_WriteReg(R0, 0x08000000)  returns 0x00 (0000ms, 0187ms total)
T1654 000:323 JLINK_WriteReg(R1, 0x00000400)  returns 0x00 (0000ms, 0187ms total)
T1654 000:323 JLINK_WriteReg(R2, 0x20000164)  returns 0x00 (0000ms, 0187ms total)
T1654 000:323 JLINK_WriteReg(R3, 0x00000000)  returns 0x00 (0000ms, 0187ms total)
T1654 000:323 JLINK_WriteReg(R4, 0x00000000)  returns 0x00 (0000ms, 0187ms total)
T1654 000:323 JLINK_WriteReg(R5, 0x00000000)  returns 0x00 (0000ms, 0187ms total)
T1654 000:323 JLINK_WriteReg(R6, 0x00000000)  returns 0x00 (0000ms, 0187ms total)
T1654 000:323 JLINK_WriteReg(R7, 0x00000000)  returns 0x00 (0000ms, 0187ms total)
T1654 000:323 JLINK_WriteReg(R8, 0x00000000)  returns 0x00 (0000ms, 0187ms total)
T1654 000:323 JLINK_WriteReg(R9, 0x20000160)  returns 0x00 (0000ms, 0187ms total)
T1654 000:323 JLINK_WriteReg(R10, 0x00000000)  returns 0x00 (0000ms, 0187ms total)
T1654 000:323 JLINK_WriteReg(R11, 0x00000000)  returns 0x00 (0000ms, 0187ms total)
T1654 000:323 JLINK_WriteReg(R12, 0x00000000)  returns 0x00 (0000ms, 0187ms total)
T1654 000:323 JLINK_WriteReg(R13, 0x20000800)  returns 0x00 (0000ms, 0187ms total)
T1654 000:323 JLINK_WriteReg(R14, 0x20000001)  returns 0x00 (0000ms, 0187ms total)
T1654 000:323 JLINK_WriteReg(R15, 0x200000F4)  returns 0x00 (0000ms, 0187ms total)
T1654 000:323 JLINK_WriteReg(XPSR, 0x01000000)  returns 0x00 (0000ms, 0187ms total)
T1654 000:323 JLINK_WriteReg(MSP, 0x20000800)  returns 0x00 (0000ms, 0187ms total)
T1654 000:323 JLINK_WriteReg(PSP, 0x20000800)  returns 0x00 (0000ms, 0187ms total)
T1654 000:323 JLINK_WriteReg(CFBP, 0x00000000)  returns 0x00 (0000ms, 0187ms total)
T1654 000:323 JLINK_SetBPEx(Addr = 0x20000000, Type = 0xFFFFFFF2)  returns 0x00000005 (0000ms, 0187ms total)
T1654 000:323 JLINK_Go() (0002ms, 0189ms total)
T1654 000:325 JLINK_IsHalted()  returns FALSE (0001ms, 0190ms total)
T1654 000:330 JLINK_IsHalted()  returns FALSE (0000ms, 0189ms total)
T1654 000:332 JLINK_IsHalted()  returns FALSE (0000ms, 0189ms total)
T1654 000:334 JLINK_IsHalted()  returns FALSE (0000ms, 0189ms total)
T1654 000:344 JLINK_IsHalted()  returns FALSE (0000ms, 0189ms total)
T1654 000:346 JLINK_IsHalted()  returns FALSE (0000ms, 0189ms total)
T1654 000:348 JLINK_IsHalted()  returns FALSE (0000ms, 0189ms total)
T1654 000:350 JLINK_IsHalted()  returns FALSE (0000ms, 0189ms total)
T1654 000:352 JLINK_IsHalted()  returns FALSE (0000ms, 0189ms total)
T1654 000:354 JLINK_IsHalted()  returns FALSE (0000ms, 0189ms total)
T1654 000:356 JLINK_IsHalted()  returns FALSE (0000ms, 0189ms total)
T1654 000:358 JLINK_IsHalted() -- CPU_ReadMem(2 bytes @ 0x20000000)  returns TRUE (0002ms, 0191ms total)
T1654 000:360 JLINK_ReadReg(R15)  returns 0x20000000 (0000ms, 0189ms total)
T1654 000:360 JLINK_ClrBPEx(BPHandle = 0x00000005)  returns 0x00 (0000ms, 0189ms total)
T1654 000:360 JLINK_ReadReg(R0)  returns 0x00000000 (0000ms, 0189ms total)
T1654 000:360 JLINK_WriteMem(0x20000164, 0x0400 Bytes, ...) -- Data:  E9 E7 83 F0 00 43 5B E7 81 F0 00 41 58 E7 2D E9 ... -- CPU_WriteMem(1024 bytes @ 0x20000164)  returns 0x400 (0007ms, 0196ms total)
T1654 000:367 JLINK_WriteReg(R0, 0x08000400)  returns 0x00 (0000ms, 0196ms total)
T1654 000:367 JLINK_WriteReg(R1, 0x00000400)  returns 0x00 (0000ms, 0196ms total)
T1654 000:368 JLINK_WriteReg(R2, 0x20000164)  returns 0x00 (0000ms, 0196ms total)
T1654 000:368 JLINK_WriteReg(R3, 0x00000000)  returns 0x00 (0000ms, 0196ms total)
T1654 000:368 JLINK_WriteReg(R4, 0x00000000)  returns 0x00 (0000ms, 0196ms total)
T1654 000:368 JLINK_WriteReg(R5, 0x00000000)  returns 0x00 (0000ms, 0196ms total)
T1654 000:368 JLINK_WriteReg(R6, 0x00000000)  returns 0x00 (0000ms, 0196ms total)
T1654 000:368 JLINK_WriteReg(R7, 0x00000000)  returns 0x00 (0000ms, 0196ms total)
T1654 000:368 JLINK_WriteReg(R8, 0x00000000)  returns 0x00 (0000ms, 0196ms total)
T1654 000:368 JLINK_WriteReg(R9, 0x20000160)  returns 0x00 (0000ms, 0196ms total)
T1654 000:368 JLINK_WriteReg(R10, 0x00000000)  returns 0x00 (0000ms, 0196ms total)
T1654 000:368 JLINK_WriteReg(R11, 0x00000000)  returns 0x00 (0000ms, 0196ms total)
T1654 000:368 JLINK_WriteReg(R12, 0x00000000)  returns 0x00 (0000ms, 0196ms total)
T1654 000:368 JLINK_WriteReg(R13, 0x20000800)  returns 0x00 (0000ms, 0196ms total)
T1654 000:368 JLINK_WriteReg(R14, 0x20000001)  returns 0x00 (0000ms, 0196ms total)
T1654 000:368 JLINK_WriteReg(R15, 0x200000F4)  returns 0x00 (0000ms, 0196ms total)
T1654 000:368 JLINK_WriteReg(XPSR, 0x01000000)  returns 0x00 (0000ms, 0196ms total)
T1654 000:368 JLINK_WriteReg(MSP, 0x20000800)  returns 0x00 (0000ms, 0196ms total)
T1654 000:368 JLINK_WriteReg(PSP, 0x20000800)  returns 0x00 (0000ms, 0196ms total)
T1654 000:368 JLINK_WriteReg(CFBP, 0x00000000)  returns 0x00 (0000ms, 0196ms total)
T1654 000:368 JLINK_SetBPEx(Addr = 0x20000000, Type = 0xFFFFFFF2)  returns 0x00000006 (0000ms, 0196ms total)
T1654 000:368 JLINK_Go() (0002ms, 0198ms total)
T1654 000:370 JLINK_IsHalted()  returns FALSE (0000ms, 0198ms total)
T1654 000:372 JLINK_IsHalted()  returns FALSE (0000ms, 0198ms total)
T1654 000:374 JLINK_IsHalted()  returns FALSE (0000ms, 0198ms total)
T1654 000:376 JLINK_IsHalted()  returns FALSE (0000ms, 0198ms total)
T1654 000:378 JLINK_IsHalted()  returns FALSE (0000ms, 0198ms total)
T1654 000:380 JLINK_IsHalted()  returns FALSE (0000ms, 0198ms total)
T1654 000:382 JLINK_IsHalted()  returns FALSE (0000ms, 0198ms total)
T1654 000:384 JLINK_IsHalted()  returns FALSE (0000ms, 0198ms total)
T1654 000:386 JLINK_IsHalted()  returns FALSE (0000ms, 0198ms total)
T1654 000:388 JLINK_IsHalted()  returns FALSE (0000ms, 0198ms total)
T1654 000:390 JLINK_IsHalted()  returns FALSE (0000ms, 0198ms total)
T1654 000:392 JLINK_IsHalted()  returns FALSE (0000ms, 0198ms total)
T1654 000:394 JLINK_IsHalted()  returns FALSE (0000ms, 0198ms total)
T1654 000:396 JLINK_IsHalted()  returns FALSE (0000ms, 0198ms total)
T1654 000:398 JLINK_IsHalted()  returns FALSE (0000ms, 0198ms total)
T1654 000:400 JLINK_IsHalted()  returns FALSE (0000ms, 0198ms total)
T1654 000:401 JLINK_IsHalted() -- CPU_ReadMem(2 bytes @ 0x20000000)  returns TRUE (0003ms, 0201ms total)
T1654 000:404 JLINK_ReadReg(R15)  returns 0x20000000 (0000ms, 0198ms total)
T1654 000:404 JLINK_ClrBPEx(BPHandle = 0x00000006)  returns 0x00 (0000ms, 0198ms total)
T1654 000:404 JLINK_ReadReg(R0)  returns 0x00000000 (0000ms, 0198ms total)
T1654 000:405 JLINK_WriteMem(0x20000164, 0x0400 Bytes, ...) -- Data:  40 1C 41 F1 00 01 92 18 5B 41 1A 43 01 D1 20 F0 ... -- CPU_WriteMem(1024 bytes @ 0x20000164)  returns 0x400 (0007ms, 0205ms total)
T1654 000:412 JLINK_WriteReg(R0, 0x08000800)  returns 0x00 (0000ms, 0205ms total)
T1654 000:412 JLINK_WriteReg(R1, 0x00000400)  returns 0x00 (0000ms, 0205ms total)
T1654 000:412 JLINK_WriteReg(R2, 0x20000164)  returns 0x00 (0000ms, 0205ms total)
T1654 000:412 JLINK_WriteReg(R3, 0x00000000)  returns 0x00 (0000ms, 0205ms total)
T1654 000:412 JLINK_WriteReg(R4, 0x00000000)  returns 0x00 (0000ms, 0205ms total)
T1654 000:412 JLINK_WriteReg(R5, 0x00000000)  returns 0x00 (0000ms, 0205ms total)
T1654 000:412 JLINK_WriteReg(R6, 0x00000000)  returns 0x00 (0000ms, 0205ms total)
T1654 000:412 JLINK_WriteReg(R7, 0x00000000)  returns 0x00 (0000ms, 0205ms total)
T1654 000:412 JLINK_WriteReg(R8, 0x00000000)  returns 0x00 (0000ms, 0205ms total)
T1654 000:412 JLINK_WriteReg(R9, 0x20000160)  returns 0x00 (0000ms, 0205ms total)
T1654 000:412 JLINK_WriteReg(R10, 0x00000000)  returns 0x00 (0000ms, 0205ms total)
T1654 000:412 JLINK_WriteReg(R11, 0x00000000)  returns 0x00 (0000ms, 0205ms total)
T1654 000:412 JLINK_WriteReg(R12, 0x00000000)  returns 0x00 (0000ms, 0205ms total)
T1654 000:412 JLINK_WriteReg(R13, 0x20000800)  returns 0x00 (0000ms, 0205ms total)
T1654 000:412 JLINK_WriteReg(R14, 0x20000001)  returns 0x00 (0000ms, 0205ms total)
T1654 000:412 JLINK_WriteReg(R15, 0x200000F4)  returns 0x00 (0000ms, 0205ms total)
T1654 000:412 JLINK_WriteReg(XPSR, 0x01000000)  returns 0x00 (0000ms, 0205ms total)
T1654 000:412 JLINK_WriteReg(MSP, 0x20000800)  returns 0x00 (0000ms, 0205ms total)
T1654 000:412 JLINK_WriteReg(PSP, 0x20000800)  returns 0x00 (0000ms, 0205ms total)
T1654 000:412 JLINK_WriteReg(CFBP, 0x00000000)  returns 0x00 (0000ms, 0205ms total)
T1654 000:412 JLINK_SetBPEx(Addr = 0x20000000, Type = 0xFFFFFFF2)  returns 0x00000007 (0000ms, 0205ms total)
T1654 000:412 JLINK_Go() (0002ms, 0207ms total)
T1654 000:414 JLINK_IsHalted()  returns FALSE (0000ms, 0207ms total)
T1654 000:416 JLINK_IsHalted()  returns FALSE (0000ms, 0207ms total)
T1654 000:418 JLINK_IsHalted()  returns FALSE (0000ms, 0207ms total)
T1654 000:420 JLINK_IsHalted()  returns FALSE (0000ms, 0207ms total)
T1654 000:422 JLINK_IsHalted()  returns FALSE (0000ms, 0207ms total)
T1654 000:426 JLINK_IsHalted()  returns FALSE (0000ms, 0207ms total)
T1654 000:428 JLINK_IsHalted()  returns FALSE (0000ms, 0207ms total)
T1654 000:430 JLINK_IsHalted()  returns FALSE (0000ms, 0207ms total)
T1654 000:432 JLINK_IsHalted()  returns FALSE (0000ms, 0207ms total)
T1654 000:434 JLINK_IsHalted()  returns FALSE (0000ms, 0207ms total)
T1654 000:436 JLINK_IsHalted()  returns FALSE (0000ms, 0207ms total)
T1654 000:438 JLINK_IsHalted()  returns FALSE (0000ms, 0207ms total)
T1654 000:440 JLINK_IsHalted()  returns FALSE (0000ms, 0207ms total)
T1654 000:442 JLINK_IsHalted()  returns FALSE (0000ms, 0207ms total)
T1654 000:443 JLINK_IsHalted()  returns FALSE (0000ms, 0207ms total)
T1654 000:453 JLINK_IsHalted() -- CPU_ReadMem(2 bytes @ 0x20000000)  returns TRUE (0003ms, 0210ms total)
T1654 000:456 JLINK_ReadReg(R15)  returns 0x20000000 (0000ms, 0207ms total)
T1654 000:456 JLINK_ClrBPEx(BPHandle = 0x00000007)  returns 0x00 (0000ms, 0207ms total)
T1654 000:456 JLINK_ReadReg(R0)  returns 0x00000000 (0000ms, 0207ms total)
T1654 000:457 JLINK_WriteMem(0x20000164, 0x0400 Bytes, ...) -- Data:  2E 2E 0D 0A 00 00 00 00 A6 00 00 20 8C 00 00 20 ... -- CPU_WriteMem(1024 bytes @ 0x20000164)  returns 0x400 (0007ms, 0214ms total)
T1654 000:464 JLINK_WriteReg(R0, 0x08000C00)  returns 0x00 (0000ms, 0214ms total)
T1654 000:464 JLINK_WriteReg(R1, 0x00000400)  returns 0x00 (0000ms, 0214ms total)
T1654 000:464 JLINK_WriteReg(R2, 0x20000164)  returns 0x00 (0000ms, 0214ms total)
T1654 000:464 JLINK_WriteReg(R3, 0x00000000)  returns 0x00 (0000ms, 0214ms total)
T1654 000:464 JLINK_WriteReg(R4, 0x00000000)  returns 0x00 (0000ms, 0214ms total)
T1654 000:464 JLINK_WriteReg(R5, 0x00000000)  returns 0x00 (0000ms, 0214ms total)
T1654 000:464 JLINK_WriteReg(R6, 0x00000000)  returns 0x00 (0000ms, 0214ms total)
T1654 000:464 JLINK_WriteReg(R7, 0x00000000)  returns 0x00 (0000ms, 0214ms total)
T1654 000:464 JLINK_WriteReg(R8, 0x00000000)  returns 0x00 (0000ms, 0214ms total)
T1654 000:464 JLINK_WriteReg(R9, 0x20000160)  returns 0x00 (0000ms, 0214ms total)
T1654 000:464 JLINK_WriteReg(R10, 0x00000000)  returns 0x00 (0000ms, 0214ms total)
T1654 000:464 JLINK_WriteReg(R11, 0x00000000)  returns 0x00 (0000ms, 0214ms total)
T1654 000:464 JLINK_WriteReg(R12, 0x00000000)  returns 0x00 (0000ms, 0214ms total)
T1654 000:464 JLINK_WriteReg(R13, 0x20000800)  returns 0x00 (0000ms, 0214ms total)
T1654 000:464 JLINK_WriteReg(R14, 0x20000001)  returns 0x00 (0000ms, 0214ms total)
T1654 000:464 JLINK_WriteReg(R15, 0x200000F4)  returns 0x00 (0000ms, 0214ms total)
T1654 000:464 JLINK_WriteReg(XPSR, 0x01000000)  returns 0x00 (0000ms, 0214ms total)
T1654 000:464 JLINK_WriteReg(MSP, 0x20000800)  returns 0x00 (0000ms, 0214ms total)
T1654 000:464 JLINK_WriteReg(PSP, 0x20000800)  returns 0x00 (0000ms, 0214ms total)
T1654 000:464 JLINK_WriteReg(CFBP, 0x00000000)  returns 0x00 (0000ms, 0214ms total)
T1654 000:464 JLINK_SetBPEx(Addr = 0x20000000, Type = 0xFFFFFFF2)  returns 0x00000008 (0000ms, 0214ms total)
T1654 000:464 JLINK_Go() (0002ms, 0216ms total)
T1654 000:466 JLINK_IsHalted()  returns FALSE (0000ms, 0216ms total)
T1654 000:468 JLINK_IsHalted()  returns FALSE (0000ms, 0216ms total)
T1654 000:470 JLINK_IsHalted()  returns FALSE (0000ms, 0216ms total)
T1654 000:472 JLINK_IsHalted()  returns FALSE (0000ms, 0216ms total)
T1654 000:474 JLINK_IsHalted()  returns FALSE (0000ms, 0216ms total)
T1654 000:476 JLINK_IsHalted()  returns FALSE (0000ms, 0216ms total)
T1654 000:478 JLINK_IsHalted()  returns FALSE (0000ms, 0216ms total)
T1654 000:480 JLINK_IsHalted()  returns FALSE (0000ms, 0216ms total)
T1654 000:482 JLINK_IsHalted()  returns FALSE (0000ms, 0216ms total)
T1654 000:483 JLINK_IsHalted()  returns FALSE (0000ms, 0216ms total)
T1654 000:485 JLINK_IsHalted()  returns FALSE (0000ms, 0216ms total)
T1654 000:487 JLINK_IsHalted()  returns FALSE (0000ms, 0216ms total)
T1654 000:489 JLINK_IsHalted()  returns FALSE (0000ms, 0216ms total)
T1654 000:491 JLINK_IsHalted()  returns FALSE (0000ms, 0216ms total)
T1654 000:493 JLINK_IsHalted()  returns FALSE (0000ms, 0216ms total)
T1654 000:495 JLINK_IsHalted()  returns FALSE (0000ms, 0216ms total)
T1654 000:497 JLINK_IsHalted() -- CPU_ReadMem(2 bytes @ 0x20000000)  returns TRUE (0003ms, 0219ms total)
T1654 000:500 JLINK_ReadReg(R15)  returns 0x20000000 (0000ms, 0216ms total)
T1654 000:500 JLINK_ClrBPEx(BPHandle = 0x00000008)  returns 0x00 (0000ms, 0216ms total)
T1654 000:500 JLINK_ReadReg(R0)  returns 0x00000000 (0000ms, 0216ms total)
T1654 000:501 JLINK_WriteMem(0x20000164, 0x0400 Bytes, ...) -- Data:  0A 0D 20 52 65 67 42 20 20 45 52 52 4F 52 21 21 ... -- CPU_WriteMem(1024 bytes @ 0x20000164)  returns 0x400 (0007ms, 0223ms total)
T1654 000:508 JLINK_WriteReg(R0, 0x08001000)  returns 0x00 (0000ms, 0223ms total)
T1654 000:508 JLINK_WriteReg(R1, 0x00000400)  returns 0x00 (0000ms, 0223ms total)
T1654 000:508 JLINK_WriteReg(R2, 0x20000164)  returns 0x00 (0000ms, 0223ms total)
T1654 000:508 JLINK_WriteReg(R3, 0x00000000)  returns 0x00 (0000ms, 0223ms total)
T1654 000:508 JLINK_WriteReg(R4, 0x00000000)  returns 0x00 (0000ms, 0223ms total)
T1654 000:508 JLINK_WriteReg(R5, 0x00000000)  returns 0x00 (0000ms, 0223ms total)
T1654 000:508 JLINK_WriteReg(R6, 0x00000000)  returns 0x00 (0000ms, 0223ms total)
T1654 000:508 JLINK_WriteReg(R7, 0x00000000)  returns 0x00 (0000ms, 0223ms total)
T1654 000:508 JLINK_WriteReg(R8, 0x00000000)  returns 0x00 (0000ms, 0223ms total)
T1654 000:508 JLINK_WriteReg(R9, 0x20000160)  returns 0x00 (0000ms, 0223ms total)
T1654 000:508 JLINK_WriteReg(R10, 0x00000000)  returns 0x00 (0000ms, 0223ms total)
T1654 000:508 JLINK_WriteReg(R11, 0x00000000)  returns 0x00 (0000ms, 0223ms total)
T1654 000:508 JLINK_WriteReg(R12, 0x00000000)  returns 0x00 (0000ms, 0223ms total)
T1654 000:508 JLINK_WriteReg(R13, 0x20000800)  returns 0x00 (0000ms, 0223ms total)
T1654 000:508 JLINK_WriteReg(R14, 0x20000001)  returns 0x00 (0000ms, 0223ms total)
T1654 000:508 JLINK_WriteReg(R15, 0x200000F4)  returns 0x00 (0000ms, 0223ms total)
T1654 000:508 JLINK_WriteReg(XPSR, 0x01000000)  returns 0x00 (0000ms, 0223ms total)
T1654 000:508 JLINK_WriteReg(MSP, 0x20000800)  returns 0x00 (0000ms, 0223ms total)
T1654 000:508 JLINK_WriteReg(PSP, 0x20000800)  returns 0x00 (0000ms, 0223ms total)
T1654 000:508 JLINK_WriteReg(CFBP, 0x00000000)  returns 0x00 (0000ms, 0223ms total)
T1654 000:508 JLINK_SetBPEx(Addr = 0x20000000, Type = 0xFFFFFFF2)  returns 0x00000009 (0000ms, 0223ms total)
T1654 000:508 JLINK_Go() (0002ms, 0225ms total)
T1654 000:510 JLINK_IsHalted()  returns FALSE (0000ms, 0225ms total)
T1654 000:512 JLINK_IsHalted()  returns FALSE (0000ms, 0225ms total)
T1654 000:514 JLINK_IsHalted()  returns FALSE (0000ms, 0225ms total)
T1654 000:516 JLINK_IsHalted()  returns FALSE (0000ms, 0225ms total)
T1654 000:518 JLINK_IsHalted()  returns FALSE (0000ms, 0225ms total)
T1654 000:520 JLINK_IsHalted()  returns FALSE (0000ms, 0225ms total)
T1654 000:522 JLINK_IsHalted()  returns FALSE (0000ms, 0225ms total)
T1654 000:524 JLINK_IsHalted()  returns FALSE (0000ms, 0225ms total)
T1654 000:525 JLINK_IsHalted()  returns FALSE (0000ms, 0225ms total)
T1654 000:527 JLINK_IsHalted()  returns FALSE (0000ms, 0225ms total)
T1654 000:529 JLINK_IsHalted()  returns FALSE (0000ms, 0225ms total)
T1654 000:531 JLINK_IsHalted()  returns FALSE (0000ms, 0225ms total)
T1654 000:535 JLINK_IsHalted()  returns FALSE (0000ms, 0225ms total)
T1654 000:537 JLINK_IsHalted()  returns FALSE (0000ms, 0225ms total)
T1654 000:539 JLINK_IsHalted()  returns FALSE (0000ms, 0225ms total)
T1654 000:541 JLINK_IsHalted() -- CPU_ReadMem(2 bytes @ 0x20000000)  returns TRUE (0003ms, 0228ms total)
T1654 000:544 JLINK_ReadReg(R15)  returns 0x20000000 (0000ms, 0225ms total)
T1654 000:544 JLINK_ClrBPEx(BPHandle = 0x00000009)  returns 0x00 (0000ms, 0225ms total)
T1654 000:544 JLINK_ReadReg(R0)  returns 0x00000000 (0000ms, 0225ms total)
T1654 000:545 JLINK_WriteMem(0x20000164, 0x0400 Bytes, ...) -- Data:  10 30 00 EB 41 0A 04 EB 44 00 00 EB 04 11 3E 48 ... -- CPU_WriteMem(1024 bytes @ 0x20000164)  returns 0x400 (0006ms, 0231ms total)
T1654 000:551 JLINK_WriteReg(R0, 0x08001400)  returns 0x00 (0000ms, 0231ms total)
T1654 000:552 JLINK_WriteReg(R1, 0x00000400)  returns 0x00 (0000ms, 0231ms total)
T1654 000:552 JLINK_WriteReg(R2, 0x20000164)  returns 0x00 (0000ms, 0231ms total)
T1654 000:552 JLINK_WriteReg(R3, 0x00000000)  returns 0x00 (0000ms, 0231ms total)
T1654 000:552 JLINK_WriteReg(R4, 0x00000000)  returns 0x00 (0000ms, 0231ms total)
T1654 000:552 JLINK_WriteReg(R5, 0x00000000)  returns 0x00 (0000ms, 0231ms total)
T1654 000:552 JLINK_WriteReg(R6, 0x00000000)  returns 0x00 (0000ms, 0231ms total)
T1654 000:552 JLINK_WriteReg(R7, 0x00000000)  returns 0x00 (0000ms, 0231ms total)
T1654 000:552 JLINK_WriteReg(R8, 0x00000000)  returns 0x00 (0000ms, 0231ms total)
T1654 000:552 JLINK_WriteReg(R9, 0x20000160)  returns 0x00 (0000ms, 0231ms total)
T1654 000:552 JLINK_WriteReg(R10, 0x00000000)  returns 0x00 (0000ms, 0231ms total)
T1654 000:552 JLINK_WriteReg(R11, 0x00000000)  returns 0x00 (0000ms, 0231ms total)
T1654 000:552 JLINK_WriteReg(R12, 0x00000000)  returns 0x00 (0000ms, 0231ms total)
T1654 000:552 JLINK_WriteReg(R13, 0x20000800)  returns 0x00 (0000ms, 0231ms total)
T1654 000:552 JLINK_WriteReg(R14, 0x20000001)  returns 0x00 (0000ms, 0231ms total)
T1654 000:552 JLINK_WriteReg(R15, 0x200000F4)  returns 0x00 (0000ms, 0231ms total)
T1654 000:552 JLINK_WriteReg(XPSR, 0x01000000)  returns 0x00 (0000ms, 0231ms total)
T1654 000:552 JLINK_WriteReg(MSP, 0x20000800)  returns 0x00 (0000ms, 0231ms total)
T1654 000:552 JLINK_WriteReg(PSP, 0x20000800)  returns 0x00 (0000ms, 0231ms total)
T1654 000:552 JLINK_WriteReg(CFBP, 0x00000000)  returns 0x00 (0000ms, 0231ms total)
T1654 000:552 JLINK_SetBPEx(Addr = 0x20000000, Type = 0xFFFFFFF2)  returns 0x0000000A (0000ms, 0231ms total)
T1654 000:552 JLINK_Go() (0002ms, 0233ms total)
T1654 000:554 JLINK_IsHalted()  returns FALSE (0000ms, 0233ms total)
T1654 000:563 JLINK_IsHalted()  returns FALSE (0000ms, 0233ms total)
T1654 000:565 JLINK_IsHalted()  returns FALSE (0000ms, 0233ms total)
T1654 000:567 JLINK_IsHalted()  returns FALSE (0000ms, 0233ms total)
T1654 000:568 JLINK_IsHalted()  returns FALSE (0000ms, 0233ms total)
T1654 000:570 JLINK_IsHalted()  returns FALSE (0000ms, 0233ms total)
T1654 000:572 JLINK_IsHalted()  returns FALSE (0000ms, 0233ms total)
T1654 000:574 JLINK_IsHalted()  returns FALSE (0000ms, 0233ms total)
T1654 000:576 JLINK_IsHalted()  returns FALSE (0000ms, 0233ms total)
T1654 000:578 JLINK_IsHalted()  returns FALSE (0000ms, 0233ms total)
T1654 000:580 JLINK_IsHalted()  returns FALSE (0000ms, 0233ms total)
T1654 000:582 JLINK_IsHalted()  returns FALSE (0000ms, 0233ms total)
T1654 000:584 JLINK_IsHalted() -- CPU_ReadMem(2 bytes @ 0x20000000)  returns TRUE (0003ms, 0236ms total)
T1654 000:587 JLINK_ReadReg(R15)  returns 0x20000000 (0000ms, 0233ms total)
T1654 000:587 JLINK_ClrBPEx(BPHandle = 0x0000000A)  returns 0x00 (0000ms, 0233ms total)
T1654 000:587 JLINK_ReadReg(R0)  returns 0x00000000 (0000ms, 0233ms total)
T1654 000:588 JLINK_WriteMem(0x20000164, 0x0400 Bytes, ...) -- Data:  11 49 08 80 28 46 07 B0 30 BD 4F F4 96 71 0C 48 ... -- CPU_WriteMem(1024 bytes @ 0x20000164)  returns 0x400 (0007ms, 0240ms total)
T1654 000:595 JLINK_WriteReg(R0, 0x08001800)  returns 0x00 (0000ms, 0240ms total)
T1654 000:595 JLINK_WriteReg(R1, 0x00000400)  returns 0x00 (0000ms, 0240ms total)
T1654 000:595 JLINK_WriteReg(R2, 0x20000164)  returns 0x00 (0000ms, 0240ms total)
T1654 000:595 JLINK_WriteReg(R3, 0x00000000)  returns 0x00 (0000ms, 0240ms total)
T1654 000:595 JLINK_WriteReg(R4, 0x00000000)  returns 0x00 (0000ms, 0240ms total)
T1654 000:595 JLINK_WriteReg(R5, 0x00000000)  returns 0x00 (0000ms, 0240ms total)
T1654 000:595 JLINK_WriteReg(R6, 0x00000000)  returns 0x00 (0000ms, 0240ms total)
T1654 000:595 JLINK_WriteReg(R7, 0x00000000)  returns 0x00 (0000ms, 0240ms total)
T1654 000:595 JLINK_WriteReg(R8, 0x00000000)  returns 0x00 (0000ms, 0240ms total)
T1654 000:595 JLINK_WriteReg(R9, 0x20000160)  returns 0x00 (0000ms, 0240ms total)
T1654 000:595 JLINK_WriteReg(R10, 0x00000000)  returns 0x00 (0000ms, 0240ms total)
T1654 000:595 JLINK_WriteReg(R11, 0x00000000)  returns 0x00 (0000ms, 0240ms total)
T1654 000:595 JLINK_WriteReg(R12, 0x00000000)  returns 0x00 (0000ms, 0240ms total)
T1654 000:595 JLINK_WriteReg(R13, 0x20000800)  returns 0x00 (0000ms, 0240ms total)
T1654 000:595 JLINK_WriteReg(R14, 0x20000001)  returns 0x00 (0000ms, 0240ms total)
T1654 000:595 JLINK_WriteReg(R15, 0x200000F4)  returns 0x00 (0000ms, 0240ms total)
T1654 000:595 JLINK_WriteReg(XPSR, 0x01000000)  returns 0x00 (0000ms, 0240ms total)
T1654 000:595 JLINK_WriteReg(MSP, 0x20000800)  returns 0x00 (0000ms, 0240ms total)
T1654 000:595 JLINK_WriteReg(PSP, 0x20000800)  returns 0x00 (0000ms, 0240ms total)
T1654 000:595 JLINK_WriteReg(CFBP, 0x00000000)  returns 0x00 (0000ms, 0240ms total)
T1654 000:595 JLINK_SetBPEx(Addr = 0x20000000, Type = 0xFFFFFFF2)  returns 0x0000000B (0000ms, 0240ms total)
T1654 000:595 JLINK_Go() (0002ms, 0242ms total)
T1654 000:597 JLINK_IsHalted()  returns FALSE (0000ms, 0242ms total)
T1654 000:599 JLINK_IsHalted()  returns FALSE (0000ms, 0242ms total)
T1654 000:601 JLINK_IsHalted()  returns FALSE (0000ms, 0242ms total)
T1654 000:603 JLINK_IsHalted()  returns FALSE (0000ms, 0242ms total)
T1654 000:605 JLINK_IsHalted()  returns FALSE (0000ms, 0242ms total)
T1654 000:607 JLINK_IsHalted()  returns FALSE (0000ms, 0242ms total)
T1654 000:608 JLINK_IsHalted()  returns FALSE (0000ms, 0242ms total)
T1654 000:610 JLINK_IsHalted()  returns FALSE (0000ms, 0242ms total)
T1654 000:612 JLINK_IsHalted()  returns FALSE (0000ms, 0242ms total)
T1654 000:615 JLINK_IsHalted()  returns FALSE (0000ms, 0242ms total)
T1654 000:617 JLINK_IsHalted()  returns FALSE (0000ms, 0242ms total)
T1654 000:619 JLINK_IsHalted()  returns FALSE (0000ms, 0242ms total)
T1654 000:621 JLINK_IsHalted()  returns FALSE (0000ms, 0242ms total)
T1654 000:623 JLINK_IsHalted()  returns FALSE (0000ms, 0242ms total)
T1654 000:625 JLINK_IsHalted()  returns FALSE (0000ms, 0242ms total)
T1654 000:627 JLINK_IsHalted() -- CPU_ReadMem(2 bytes @ 0x20000000)  returns TRUE (0003ms, 0245ms total)
T1654 000:630 JLINK_ReadReg(R15)  returns 0x20000000 (0000ms, 0242ms total)
T1654 000:630 JLINK_ClrBPEx(BPHandle = 0x0000000B)  returns 0x00 (0000ms, 0242ms total)
T1654 000:630 JLINK_ReadReg(R0)  returns 0x00000000 (0000ms, 0242ms total)
T1654 000:631 JLINK_WriteMem(0x20000164, 0x0400 Bytes, ...) -- Data:  3C 00 00 20 30 B5 87 B0 1E A3 0F CB 03 AC 0F C4 ... -- CPU_WriteMem(1024 bytes @ 0x20000164)  returns 0x400 (0007ms, 0249ms total)
T1654 000:638 JLINK_WriteReg(R0, 0x08001C00)  returns 0x00 (0000ms, 0249ms total)
T1654 000:638 JLINK_WriteReg(R1, 0x00000400)  returns 0x00 (0000ms, 0249ms total)
T1654 000:638 JLINK_WriteReg(R2, 0x20000164)  returns 0x00 (0000ms, 0249ms total)
T1654 000:638 JLINK_WriteReg(R3, 0x00000000)  returns 0x00 (0000ms, 0249ms total)
T1654 000:638 JLINK_WriteReg(R4, 0x00000000)  returns 0x00 (0000ms, 0249ms total)
T1654 000:638 JLINK_WriteReg(R5, 0x00000000)  returns 0x00 (0000ms, 0249ms total)
T1654 000:638 JLINK_WriteReg(R6, 0x00000000)  returns 0x00 (0000ms, 0249ms total)
T1654 000:638 JLINK_WriteReg(R7, 0x00000000)  returns 0x00 (0000ms, 0249ms total)
T1654 000:638 JLINK_WriteReg(R8, 0x00000000)  returns 0x00 (0000ms, 0249ms total)
T1654 000:638 JLINK_WriteReg(R9, 0x20000160)  returns 0x00 (0000ms, 0249ms total)
T1654 000:638 JLINK_WriteReg(R10, 0x00000000)  returns 0x00 (0000ms, 0249ms total)
T1654 000:638 JLINK_WriteReg(R11, 0x00000000)  returns 0x00 (0000ms, 0249ms total)
T1654 000:638 JLINK_WriteReg(R12, 0x00000000)  returns 0x00 (0000ms, 0249ms total)
T1654 000:638 JLINK_WriteReg(R13, 0x20000800)  returns 0x00 (0000ms, 0249ms total)
T1654 000:638 JLINK_WriteReg(R14, 0x20000001)  returns 0x00 (0000ms, 0249ms total)
T1654 000:638 JLINK_WriteReg(R15, 0x200000F4)  returns 0x00 (0000ms, 0249ms total)
T1654 000:638 JLINK_WriteReg(XPSR, 0x01000000)  returns 0x00 (0000ms, 0249ms total)
T1654 000:638 JLINK_WriteReg(MSP, 0x20000800)  returns 0x00 (0000ms, 0249ms total)
T1654 000:638 JLINK_WriteReg(PSP, 0x20000800)  returns 0x00 (0000ms, 0249ms total)
T1654 000:638 JLINK_WriteReg(CFBP, 0x00000000)  returns 0x00 (0000ms, 0249ms total)
T1654 000:638 JLINK_SetBPEx(Addr = 0x20000000, Type = 0xFFFFFFF2)  returns 0x0000000C (0000ms, 0249ms total)
T1654 000:638 JLINK_Go() (0002ms, 0251ms total)
T1654 000:640 JLINK_IsHalted()  returns FALSE (0000ms, 0251ms total)
T1654 000:644 JLINK_IsHalted()  returns FALSE (0000ms, 0251ms total)
T1654 000:646 JLINK_IsHalted()  returns FALSE (0000ms, 0251ms total)
T1654 000:648 JLINK_IsHalted()  returns FALSE (0000ms, 0251ms total)
T1654 000:650 JLINK_IsHalted()  returns FALSE (0000ms, 0251ms total)
T1654 000:651 JLINK_IsHalted()  returns FALSE (0000ms, 0251ms total)
T1654 000:653 JLINK_IsHalted()  returns FALSE (0000ms, 0251ms total)
T1654 000:655 JLINK_IsHalted()  returns FALSE (0000ms, 0251ms total)
T1654 000:657 JLINK_IsHalted()  returns FALSE (0000ms, 0251ms total)
T1654 000:659 JLINK_IsHalted()  returns FALSE (0000ms, 0251ms total)
T1654 000:669 JLINK_IsHalted()  returns FALSE (0000ms, 0251ms total)
T1654 000:671 JLINK_IsHalted() -- CPU_ReadMem(2 bytes @ 0x20000000)  returns TRUE (0003ms, 0254ms total)
T1654 000:674 JLINK_ReadReg(R15)  returns 0x20000000 (0000ms, 0251ms total)
T1654 000:674 JLINK_ClrBPEx(BPHandle = 0x0000000C)  returns 0x00 (0000ms, 0251ms total)
T1654 000:674 JLINK_ReadReg(R0)  returns 0x00000000 (0000ms, 0251ms total)
T1654 000:675 JLINK_WriteMem(0x20000164, 0x0400 Bytes, ...) -- Data:  48 80 8C E0 2D 49 04 EB 44 00 00 EB 04 12 2A 48 ... -- CPU_WriteMem(1024 bytes @ 0x20000164)  returns 0x400 (0007ms, 0258ms total)
T1654 000:682 JLINK_WriteReg(R0, 0x08002000)  returns 0x00 (0000ms, 0258ms total)
T1654 000:682 JLINK_WriteReg(R1, 0x00000400)  returns 0x00 (0000ms, 0258ms total)
T1654 000:682 JLINK_WriteReg(R2, 0x20000164)  returns 0x00 (0000ms, 0258ms total)
T1654 000:682 JLINK_WriteReg(R3, 0x00000000)  returns 0x00 (0000ms, 0258ms total)
T1654 000:682 JLINK_WriteReg(R4, 0x00000000)  returns 0x00 (0000ms, 0258ms total)
T1654 000:682 JLINK_WriteReg(R5, 0x00000000)  returns 0x00 (0000ms, 0258ms total)
T1654 000:682 JLINK_WriteReg(R6, 0x00000000)  returns 0x00 (0000ms, 0258ms total)
T1654 000:682 JLINK_WriteReg(R7, 0x00000000)  returns 0x00 (0000ms, 0258ms total)
T1654 000:682 JLINK_WriteReg(R8, 0x00000000)  returns 0x00 (0000ms, 0258ms total)
T1654 000:682 JLINK_WriteReg(R9, 0x20000160)  returns 0x00 (0000ms, 0258ms total)
T1654 000:682 JLINK_WriteReg(R10, 0x00000000)  returns 0x00 (0000ms, 0258ms total)
T1654 000:682 JLINK_WriteReg(R11, 0x00000000)  returns 0x00 (0000ms, 0258ms total)
T1654 000:682 JLINK_WriteReg(R12, 0x00000000)  returns 0x00 (0000ms, 0258ms total)
T1654 000:682 JLINK_WriteReg(R13, 0x20000800)  returns 0x00 (0000ms, 0258ms total)
T1654 000:682 JLINK_WriteReg(R14, 0x20000001)  returns 0x00 (0000ms, 0258ms total)
T1654 000:682 JLINK_WriteReg(R15, 0x200000F4)  returns 0x00 (0000ms, 0258ms total)
T1654 000:682 JLINK_WriteReg(XPSR, 0x01000000)  returns 0x00 (0000ms, 0258ms total)
T1654 000:682 JLINK_WriteReg(MSP, 0x20000800)  returns 0x00 (0000ms, 0258ms total)
T1654 000:682 JLINK_WriteReg(PSP, 0x20000800)  returns 0x00 (0000ms, 0258ms total)
T1654 000:682 JLINK_WriteReg(CFBP, 0x00000000)  returns 0x00 (0000ms, 0258ms total)
T1654 000:682 JLINK_SetBPEx(Addr = 0x20000000, Type = 0xFFFFFFF2)  returns 0x0000000D (0000ms, 0258ms total)
T1654 000:682 JLINK_Go() (0002ms, 0260ms total)
T1654 000:684 JLINK_IsHalted()  returns FALSE (0001ms, 0261ms total)
T1654 000:687 JLINK_IsHalted()  returns FALSE (0000ms, 0260ms total)
T1654 000:689 JLINK_IsHalted()  returns FALSE (0000ms, 0260ms total)
T1654 000:691 JLINK_IsHalted()  returns FALSE (0000ms, 0260ms total)
T1654 000:692 JLINK_IsHalted()  returns FALSE (0000ms, 0260ms total)
T1654 000:694 JLINK_IsHalted()  returns FALSE (0000ms, 0260ms total)
T1654 000:696 JLINK_IsHalted()  returns FALSE (0000ms, 0260ms total)
T1654 000:698 JLINK_IsHalted()  returns FALSE (0000ms, 0260ms total)
T1654 000:700 JLINK_IsHalted()  returns FALSE (0000ms, 0260ms total)
T1654 000:702 JLINK_IsHalted()  returns FALSE (0000ms, 0260ms total)
T1654 000:704 JLINK_IsHalted()  returns FALSE (0000ms, 0260ms total)
T1654 000:706 JLINK_IsHalted()  returns FALSE (0000ms, 0260ms total)
T1654 000:708 JLINK_IsHalted()  returns FALSE (0000ms, 0260ms total)
T1654 000:711 JLINK_IsHalted()  returns FALSE (0000ms, 0260ms total)
T1654 000:713 JLINK_IsHalted()  returns FALSE (0000ms, 0260ms total)
T1654 000:715 JLINK_IsHalted() -- CPU_ReadMem(2 bytes @ 0x20000000)  returns TRUE (0003ms, 0263ms total)
T1654 000:718 JLINK_ReadReg(R15)  returns 0x20000000 (0000ms, 0260ms total)
T1654 000:718 JLINK_ClrBPEx(BPHandle = 0x0000000D)  returns 0x00 (0000ms, 0260ms total)
T1654 000:718 JLINK_ReadReg(R0)  returns 0x00000000 (0000ms, 0260ms total)
T1654 000:719 JLINK_WriteMem(0x20000164, 0x0400 Bytes, ...) -- Data:  A0 79 07 44 39 46 20 46 FE F7 14 FB 06 46 30 46 ... -- CPU_WriteMem(1024 bytes @ 0x20000164)  returns 0x400 (0007ms, 0267ms total)
T1654 000:726 JLINK_WriteReg(R0, 0x08002400)  returns 0x00 (0000ms, 0267ms total)
T1654 000:726 JLINK_WriteReg(R1, 0x00000400)  returns 0x00 (0000ms, 0267ms total)
T1654 000:726 JLINK_WriteReg(R2, 0x20000164)  returns 0x00 (0000ms, 0267ms total)
T1654 000:726 JLINK_WriteReg(R3, 0x00000000)  returns 0x00 (0000ms, 0267ms total)
T1654 000:726 JLINK_WriteReg(R4, 0x00000000)  returns 0x00 (0000ms, 0267ms total)
T1654 000:726 JLINK_WriteReg(R5, 0x00000000)  returns 0x00 (0000ms, 0267ms total)
T1654 000:726 JLINK_WriteReg(R6, 0x00000000)  returns 0x00 (0000ms, 0267ms total)
T1654 000:726 JLINK_WriteReg(R7, 0x00000000)  returns 0x00 (0000ms, 0267ms total)
T1654 000:726 JLINK_WriteReg(R8, 0x00000000)  returns 0x00 (0000ms, 0267ms total)
T1654 000:727 JLINK_WriteReg(R9, 0x20000160)  returns 0x00 (0000ms, 0267ms total)
T1654 000:727 JLINK_WriteReg(R10, 0x00000000)  returns 0x00 (0000ms, 0267ms total)
T1654 000:727 JLINK_WriteReg(R11, 0x00000000)  returns 0x00 (0000ms, 0267ms total)
T1654 000:727 JLINK_WriteReg(R12, 0x00000000)  returns 0x00 (0000ms, 0267ms total)
T1654 000:727 JLINK_WriteReg(R13, 0x20000800)  returns 0x00 (0000ms, 0267ms total)
T1654 000:727 JLINK_WriteReg(R14, 0x20000001)  returns 0x00 (0000ms, 0267ms total)
T1654 000:727 JLINK_WriteReg(R15, 0x200000F4)  returns 0x00 (0000ms, 0267ms total)
T1654 000:727 JLINK_WriteReg(XPSR, 0x01000000)  returns 0x00 (0000ms, 0267ms total)
T1654 000:727 JLINK_WriteReg(MSP, 0x20000800)  returns 0x00 (0000ms, 0267ms total)
T1654 000:727 JLINK_WriteReg(PSP, 0x20000800)  returns 0x00 (0000ms, 0267ms total)
T1654 000:727 JLINK_WriteReg(CFBP, 0x00000000)  returns 0x00 (0000ms, 0267ms total)
T1654 000:727 JLINK_SetBPEx(Addr = 0x20000000, Type = 0xFFFFFFF2)  returns 0x0000000E (0000ms, 0267ms total)
T1654 000:727 JLINK_Go() (0002ms, 0269ms total)
T1654 000:729 JLINK_IsHalted()  returns FALSE (0000ms, 0269ms total)
T1654 000:732 JLINK_IsHalted()  returns FALSE (0000ms, 0269ms total)
T1654 000:733 JLINK_IsHalted()  returns FALSE (0000ms, 0269ms total)
T1654 000:735 JLINK_IsHalted()  returns FALSE (0000ms, 0269ms total)
T1654 000:737 JLINK_IsHalted()  returns FALSE (0000ms, 0269ms total)
T1654 000:739 JLINK_IsHalted()  returns FALSE (0000ms, 0269ms total)
T1654 000:741 JLINK_IsHalted()  returns FALSE (0000ms, 0269ms total)
T1654 000:743 JLINK_IsHalted()  returns FALSE (0000ms, 0269ms total)
T1654 000:745 JLINK_IsHalted()  returns FALSE (0000ms, 0269ms total)
T1654 000:747 JLINK_IsHalted()  returns FALSE (0000ms, 0269ms total)
T1654 000:749 JLINK_IsHalted()  returns FALSE (0000ms, 0269ms total)
T1654 000:751 JLINK_IsHalted()  returns FALSE (0000ms, 0269ms total)
T1654 000:754 JLINK_IsHalted()  returns FALSE (0000ms, 0269ms total)
T1654 000:756 JLINK_IsHalted()  returns FALSE (0000ms, 0269ms total)
T1654 000:758 JLINK_IsHalted()  returns FALSE (0000ms, 0269ms total)
T1654 000:760 JLINK_IsHalted() -- CPU_ReadMem(2 bytes @ 0x20000000)  returns TRUE (0003ms, 0272ms total)
T1654 000:763 JLINK_ReadReg(R15)  returns 0x20000000 (0000ms, 0269ms total)
T1654 000:763 JLINK_ClrBPEx(BPHandle = 0x0000000E)  returns 0x00 (0000ms, 0269ms total)
T1654 000:763 JLINK_ReadReg(R0)  returns 0x00000000 (0000ms, 0269ms total)
T1654 000:764 JLINK_WriteMem(0x20000164, 0x0400 Bytes, ...) -- Data:  4F E0 01 2D 1F D1 9D F8 0F 60 01 20 8D F8 09 00 ... -- CPU_WriteMem(1024 bytes @ 0x20000164)  returns 0x400 (0006ms, 0275ms total)
T1654 000:770 JLINK_WriteReg(R0, 0x08002800)  returns 0x00 (0000ms, 0275ms total)
T1654 000:770 JLINK_WriteReg(R1, 0x00000400)  returns 0x00 (0000ms, 0275ms total)
T1654 000:771 JLINK_WriteReg(R2, 0x20000164)  returns 0x00 (0000ms, 0276ms total)
T1654 000:771 JLINK_WriteReg(R3, 0x00000000)  returns 0x00 (0000ms, 0276ms total)
